
**** 05/14/22 23:53:09 ******* PSpice 17.4.0 (Nov 2018) ******* ID# 0 ********

 ** Profile: "SCHEMATIC1-sim_tranzitoriu"  [ c:\cadence\lascuanamaria_orcad\proiect_cad-PSpiceFiles\SCHEMATIC1\sim_tranzitoriu.sim ] 


 ****     CIRCUIT DESCRIPTION


******************************************************************************




** Creating circuit file "sim_tranzitoriu.cir" 
** WARNING: THIS AUTOMATICALLY GENERATED FILE MAY BE OVERWRITTEN BY SUBSEQUENT SIMULATIONS

*Libraries: 
* Profile Libraries :
* Local Libraries :
.LIB "../../../proiect_cad-pspicefiles/verde.lib" 
.LIB "../../../proiect_cad-pspicefiles/rosu.lib" 
.LIB "../../../proiect_cad-pspicefiles/portocaliu.lib" 
.LIB "../../../proiect_cad-pspicefiles/galben.lib" 
.LIB "../../../proiect_cad-pspicefiles/albastru.lib" 
* From [PSPICE NETLIST] section of C:\Users\Ana\AppData\Roaming\SPB_Data\cdssetup\OrCAD_PSpice\17.4.0\PSpice.ini file:
.lib "C:\Cadence\LascuAnamaria_orCAD\proiect1-PSpiceFiles\blue.lib" 
.lib "nom.lib" 

*Analysis directives: 
.TRAN  0 200us 0 2u 
.STEP LIN PARAM senzor 25k 40k 1k 
.OPTIONS ADVCONV
.PROBE64 V(alias(*)) I(alias(*)) W(alias(*)) D(alias(*)) NOISE(alias(*)) 
.INC "..\SCHEMATIC1.net" 



**** INCLUDING SCHEMATIC1.net ****
* source PROIECT_CAD
.EXTERNAL OUTPUT out
.EXTERNAL OUTPUT out1
.EXTERNAL OUTPUT ref
R_R1         N00083 +VCC  100k TC=0,0 
R_R3         0 N00083  {senzor} TC=0,0 
R_R2         0 N00083  100k TC=0,0 
V_V1         +VCC 0 +12V
V_V2         -VCC 0 -12V
R_R6         OUT N11463  1k TC=0,0 
R_R4         REF N11289  1k TC=0,0 
X_U4         N11463 N11289 +VCC -VCC OUT1 LM741
R_R5         N11289 OUT1  11.5k TC=0,0 
R_R7         0 N11463  11.5k TC=0,0 
R_Ra         N11846 +VCC  5.6k TC=0,0 
R_Rb         0 N11846  1k TC=0,0 
X_U7         N00083 OUT +VCC -VCC OUT LM741
X_U8         N11846 REF +VCC -VCC REF LM741
X_U9         OUT1 N13042 +VCC 0 N13228 LM741
R_R9         0 N13042  1.2k TC=0,0 
R_R8         N13042 +VCC  4.7k TC=0,0 
R_R_blue         N13228 N13284  400 TC=0,0 
D_D1          N13284 0 albastru 
R_R10         N13754 +VCC  37.4k TC=0,0 
R_R11         0 N13754  10k TC=0,0 
X_U10         OUT1 N13754 +VCC 0 N13710 LM741
D_D2          N13714 0 verde 
R_R_green         N13710 N13714  400 TC=0,0 
X_U11         OUT1 N14125 +VCC 0 N14081 LM741
R_R_red         N14081 N14085  500 TC=0,0 
R_R13         0 N14125  10k TC=0,0 
D_D3          N14085 0 rosu 
R_R12         N14125 +VCC  10.5k TC=0,0 
D_D4          N14462 0 galben 
X_U12         OUT1 N14502 +VCC 0 N14458 LM741
R_R_yellow         N14458 N14462  480 TC=0,0 
R_R15         0 N14502  3.9k TC=0,0 
R_R14         N14502 +VCC  2k TC=0,0 
R_R_orange         N14841 N14845  300 TC=0,0 
D_D5          N14845 0 portocaliu 
R_R17         0 N14885  42.2k TC=0,0 
X_U13         OUT1 N14885 +VCC 0 N14841 LM741
R_R16         N14885 +VCC  10.5k TC=0,0 
.PARAM  senzor=25k

**** RESUMING sim_tranzitoriu.cir ****
.END

**** 05/14/22 23:53:09 ******* PSpice 17.4.0 (Nov 2018) ******* ID# 0 ********

 ** Profile: "SCHEMATIC1-sim_tranzitoriu"  [ c:\cadence\lascuanamaria_orcad\proiect_cad-PSpiceFiles\SCHEMATIC1\sim_tranzitoriu.sim ] 


 ****     Diode MODEL PARAMETERS


******************************************************************************




               verde           rosu            portocaliu      galben          
          IS    7.795400E-15   10.000000E-21   10.010000E-21   10.000000E-21 
           N    3.6796          1.547           4.995           1.738        
          RS    8.9643          1.000000E-06   99.9             4.8824       


               albastru        X_U4.x_lm741.dx X_U4.x_lm741.dy X_U7.x_lm741.dx 
          IS  463.220000E-15  800.000000E-18  800.000000E-18  800.000000E-18 
           N    5                                                            
          RS   10.833           1               1.000000E-03    1            
         CJO                                   10.000000E-12                 


               X_U7.x_lm741.dy X_U8.x_lm741.dx X_U8.x_lm741.dy X_U9.x_lm741.dx 
          IS  800.000000E-18  800.000000E-18  800.000000E-18  800.000000E-18 
          RS    1.000000E-03    1               1.000000E-03    1            
         CJO   10.000000E-12                   10.000000E-12                 


               X_U9.x_lm741.dy X_U10.x_lm741.dx 
          IS  800.000000E-18  800.000000E-18 
          RS    1.000000E-03    1            
         CJO   10.000000E-12                 


               X_U10.x_lm741.dy 
          IS  800.000000E-18 
          RS    1.000000E-03 
         CJO   10.000000E-12 


               X_U11.x_lm741.dx 
          IS  800.000000E-18 
          RS    1            


               X_U11.x_lm741.dy 
          IS  800.000000E-18 
          RS    1.000000E-03 
         CJO   10.000000E-12 


               X_U12.x_lm741.dx 
          IS  800.000000E-18 
          RS    1            


               X_U12.x_lm741.dy 
          IS  800.000000E-18 
          RS    1.000000E-03 
         CJO   10.000000E-12 


               X_U13.x_lm741.dx 
          IS  800.000000E-18 
          RS    1            


               X_U13.x_lm741.dy 
          IS  800.000000E-18 
          RS    1.000000E-03 
         CJO   10.000000E-12 


**** 05/14/22 23:53:09 ******* PSpice 17.4.0 (Nov 2018) ******* ID# 0 ********

 ** Profile: "SCHEMATIC1-sim_tranzitoriu"  [ c:\cadence\lascuanamaria_orcad\proiect_cad-PSpiceFiles\SCHEMATIC1\sim_tranzitoriu.sim ] 


 ****     BJT MODEL PARAMETERS


******************************************************************************




               X_U4.x_lm741.qx X_U7.x_lm741.qx X_U8.x_lm741.qx X_U9.x_lm741.qx 
               NPN             NPN             NPN             NPN             
       LEVEL    1               1               1               1            
          IS  800.000000E-18  800.000000E-18  800.000000E-18  800.000000E-18 
          BF   93.75           93.75           93.75           93.75         
          NF    1               1               1               1            
          BR    1               1               1               1            
          NR    1               1               1               1            
         ISS    0               0               0               0            
          RE    0               0               0               0            
          RC    0               0               0               0            
         CJE    0               0               0               0            
         VJE     .75             .75             .75             .75         
         CJC    0               0               0               0            
         VJC     .75             .75             .75             .75         
         MJC     .33             .33             .33             .33         
        XCJC    1               1               1               1            
         CJS    0               0               0               0            
         VJS     .75             .75             .75             .75         
          KF    0               0               0               0            
          AF    1               1               1               1            
          CN    2.42            2.42            2.42            2.42         
           D     .87             .87             .87             .87         


               X_U10.x_lm741.qx 
               NPN             
       LEVEL    1            
          IS  800.000000E-18 
          BF   93.75         
          NF    1            
          BR    1            
          NR    1            
         ISS    0            
          RE    0            
          RC    0            
         CJE    0            
         VJE     .75         
         CJC    0            
         VJC     .75         
         MJC     .33         
        XCJC    1            
         CJS    0            
         VJS     .75         
          KF    0            
          AF    1            
          CN    2.42         
           D     .87         


               X_U11.x_lm741.qx 
               NPN             
       LEVEL    1            
          IS  800.000000E-18 
          BF   93.75         
          NF    1            
          BR    1            
          NR    1            
         ISS    0            
          RE    0            
          RC    0            
         CJE    0            
         VJE     .75         
         CJC    0            
         VJC     .75         
         MJC     .33         
        XCJC    1            
         CJS    0            
         VJS     .75         
          KF    0            
          AF    1            
          CN    2.42         
           D     .87         


               X_U12.x_lm741.qx 
               NPN             
       LEVEL    1            
          IS  800.000000E-18 
          BF   93.75         
          NF    1            
          BR    1            
          NR    1            
         ISS    0            
          RE    0            
          RC    0            
         CJE    0            
         VJE     .75         
         CJC    0            
         VJC     .75         
         MJC     .33         
        XCJC    1            
         CJS    0            
         VJS     .75         
          KF    0            
          AF    1            
          CN    2.42         
           D     .87         


               X_U13.x_lm741.qx 
               NPN             
       LEVEL    1            
          IS  800.000000E-18 
          BF   93.75         
          NF    1            
          BR    1            
          NR    1            
         ISS    0            
          RE    0            
          RC    0            
         CJE    0            
         VJE     .75         
         CJC    0            
         VJC     .75         
         MJC     .33         
        XCJC    1            
         CJS    0            
         VJS     .75         
          KF    0            
          AF    1            
          CN    2.42         
           D     .87         


**** 05/14/22 23:53:09 ******* PSpice 17.4.0 (Nov 2018) ******* ID# 0 ********

 ** Profile: "SCHEMATIC1-sim_tranzitoriu"  [ c:\cadence\lascuanamaria_orcad\proiect_cad-PSpiceFiles\SCHEMATIC1\sim_tranzitoriu.sim ] 


 ****     INITIAL TRANSIENT SOLUTION       TEMPERATURE =   27.000 DEG C

 ****     CURRENT STEP                     PARAM SENZOR =   25.0000E+03


******************************************************************************



 NODE   VOLTAGE     NODE   VOLTAGE     NODE   VOLTAGE     NODE   VOLTAGE


(  OUT)    1.9986  (  REF)    1.8181  ( +VCC)   12.0000  ( -VCC)  -12.0000      

( OUT1)    2.0756  (N00083)    1.9987 (N11289)    1.8386 (N11463)    1.8386     

(N11846)    1.8181 (N13042)    2.4405 (N13228)     .1837 (N13284)     .1837     

(N13710)     .1837 (N13714)     .1837 (N13754)    2.5304 (N14081)     .1837     

(N14085)     .1837 (N14125)    5.8528 (N14458)     .1837 (N14462)     .1837     

(N14502)    7.9320 (N14841)     .1837 (N14845)     .1837 (N14885)    9.6077     

(X_U4.x_lm741.6)-195.9E-06            (X_U4.x_lm741.7)    2.0766                

(X_U4.x_lm741.8)    2.0766            (X_U4.x_lm741.9)    0.0000                

(X_U7.x_lm741.6)-190.7E-06            (X_U7.x_lm741.7)    2.0066                

(X_U7.x_lm741.8)    2.0066            (X_U7.x_lm741.9)    0.0000                

(X_U8.x_lm741.6)-171.1E-06            (X_U8.x_lm741.7)    1.8170                

(X_U8.x_lm741.8)    1.8170            (X_U8.x_lm741.9)    0.0000                

(X_U9.x_lm741.6)    1.4660            (X_U9.x_lm741.7)   -1.8465                

(X_U9.x_lm741.8)   -1.8465            (X_U9.x_lm741.9)    0.0000                

(X_U10.x_lm741.6)    1.4667           (X_U10.x_lm741.7)   -1.8465               

(X_U10.x_lm741.8)   -1.8465           (X_U10.x_lm741.9)    0.0000               

(X_U11.x_lm741.6)    1.4936           (X_U11.x_lm741.7)   -1.8465               

(X_U11.x_lm741.8)   -1.8465           (X_U11.x_lm741.9)    0.0000               

(X_U12.x_lm741.6)    1.5105           (X_U12.x_lm741.7)   -1.8466               

(X_U12.x_lm741.8)   -1.8466           (X_U12.x_lm741.9)    0.0000               

(X_U13.x_lm741.6)    1.5240           (X_U13.x_lm741.7)   -1.8466               

(X_U13.x_lm741.8)   -1.8466           (X_U13.x_lm741.9)    0.0000               

(X_U4.x_lm741.10)    1.2306           (X_U4.x_lm741.11)   11.9600               

(X_U4.x_lm741.12)   11.9600           (X_U4.x_lm741.13)    1.2446               

(X_U4.x_lm741.14)    1.2446           (X_U4.x_lm741.53)   11.0000               

(X_U4.x_lm741.54)  -11.0000           (X_U4.x_lm741.90)     .0206               

(X_U4.x_lm741.91)   40.0000           (X_U4.x_lm741.92)  -40.0000               

(X_U4.x_lm741.99)    0.0000           (X_U7.x_lm741.10)    1.3906               

(X_U7.x_lm741.11)   11.9600           (X_U7.x_lm741.12)   11.9600               

(X_U7.x_lm741.13)    1.4046           (X_U7.x_lm741.14)    1.4046               

(X_U7.x_lm741.53)   11.0000           (X_U7.x_lm741.54)  -11.0000               

(X_U7.x_lm741.90)     .1600           (X_U7.x_lm741.91)   40.0000               

(X_U7.x_lm741.92)  -40.0000           (X_U7.x_lm741.99)    0.0000               

(X_U8.x_lm741.10)    1.2101           (X_U8.x_lm741.11)   11.9600               

(X_U8.x_lm741.12)   11.9600           (X_U8.x_lm741.13)    1.2241               

(X_U8.x_lm741.14)    1.2241           (X_U8.x_lm741.53)   11.0000               

(X_U8.x_lm741.54)  -11.0000           (X_U8.x_lm741.90)    -.0204               

(X_U8.x_lm741.91)   40.0000           (X_U8.x_lm741.92)  -40.0000               

(X_U8.x_lm741.99)    0.0000           (X_U9.x_lm741.10)    1.8020               

(X_U9.x_lm741.11)   11.9220           (X_U9.x_lm741.12)   12.0000               

(X_U9.x_lm741.13)    1.8293           (X_U9.x_lm741.14)    1.8020               

(X_U9.x_lm741.53)   11.0000           (X_U9.x_lm741.54)    1.0000               

(X_U9.x_lm741.90)  -40.6050           (X_U9.x_lm741.91)   40.0000               

(X_U9.x_lm741.92)  -40.0000           (X_U9.x_lm741.99)    6.0000               

(X_U10.x_lm741.10)    1.8919          (X_U10.x_lm741.11)   11.9220              

(X_U10.x_lm741.12)   12.0000          (X_U10.x_lm741.13)    1.9191              

(X_U10.x_lm741.14)    1.8919          (X_U10.x_lm741.53)   11.0000              

(X_U10.x_lm741.54)    1.0000          (X_U10.x_lm741.90)  -40.6050              

(X_U10.x_lm741.91)   40.0000          (X_U10.x_lm741.92)  -40.0000              

(X_U10.x_lm741.99)    6.0000          (X_U11.x_lm741.10)    5.2134              

(X_U11.x_lm741.11)   11.9210          (X_U11.x_lm741.12)   12.0000              

(X_U11.x_lm741.13)    5.2411          (X_U11.x_lm741.14)    5.2134              

(X_U11.x_lm741.53)   11.0000          (X_U11.x_lm741.54)    1.0000              

(X_U11.x_lm741.90)  -40.6060          (X_U11.x_lm741.91)   40.0000              

(X_U11.x_lm741.92)  -40.0000          (X_U11.x_lm741.99)    6.0000              

(X_U12.x_lm741.10)    7.2920          (X_U12.x_lm741.11)   11.9200              

(X_U12.x_lm741.12)   12.0000          (X_U12.x_lm741.13)    7.3200              

(X_U12.x_lm741.14)    7.2920          (X_U12.x_lm741.53)   11.0000              

(X_U12.x_lm741.54)    1.0000          (X_U12.x_lm741.90)  -40.6060              

(X_U12.x_lm741.91)   40.0000          (X_U12.x_lm741.92)  -40.0000              

(X_U12.x_lm741.99)    6.0000          (X_U13.x_lm741.10)    8.9673              

(X_U13.x_lm741.11)   11.9190          (X_U13.x_lm741.12)   12.0000              

(X_U13.x_lm741.13)    8.9956          (X_U13.x_lm741.14)    8.9673              

(X_U13.x_lm741.53)   11.0000          (X_U13.x_lm741.54)    1.0000              

(X_U13.x_lm741.90)  -40.6060          (X_U13.x_lm741.91)   40.0000              

(X_U13.x_lm741.92)  -40.0000          (X_U13.x_lm741.99)    6.0000          




    VOLTAGE SOURCE CURRENTS
    NAME         CURRENT

    V_V1        -1.444E-02
    V_V2         4.010E-03
    X_U4.x_lm741.vb  -1.959E-09
    X_U4.x_lm741.vc   8.925E-12
    X_U4.x_lm741.ve   1.458E-11
    X_U4.x_lm741.vlim   2.061E-05
    X_U4.x_lm741.vlp  -3.998E-11
    X_U4.x_lm741.vln  -4.002E-11
    X_U7.x_lm741.vb  -1.907E-09
    X_U7.x_lm741.vc   9.002E-12
    X_U7.x_lm741.ve   1.451E-11
    X_U7.x_lm741.vlim   1.600E-04
    X_U7.x_lm741.vlp  -3.984E-11
    X_U7.x_lm741.vln  -4.016E-11
    X_U8.x_lm741.vb  -1.711E-09
    X_U8.x_lm741.vc   9.183E-12
    X_U8.x_lm741.ve   1.432E-11
    X_U8.x_lm741.vlim  -2.044E-05
    X_U8.x_lm741.vlp  -4.002E-11
    X_U8.x_lm741.vln  -3.998E-11
    X_U9.x_lm741.vb   1.466E-05
    X_U9.x_lm741.vc   1.082E-11
    X_U9.x_lm741.ve  -4.060E-02
    X_U9.x_lm741.vlim  -4.060E-02
    X_U9.x_lm741.vlp  -8.061E-11
    X_U9.x_lm741.vln   1.148E-05
    X_U10.x_lm741.vb   1.467E-05
    X_U10.x_lm741.vc   1.082E-11
    X_U10.x_lm741.ve  -4.060E-02
    X_U10.x_lm741.vlim  -4.060E-02
    X_U10.x_lm741.vlp  -8.061E-11
    X_U10.x_lm741.vln   1.149E-05
    X_U11.x_lm741.vb   1.494E-05
    X_U11.x_lm741.vc   1.082E-11
    X_U11.x_lm741.ve  -4.061E-02
    X_U11.x_lm741.vlim  -4.061E-02
    X_U11.x_lm741.vlp  -8.061E-11
    X_U11.x_lm741.vln   1.177E-05
    X_U12.x_lm741.vb   1.510E-05
    X_U12.x_lm741.vc   1.082E-11
    X_U12.x_lm741.ve  -4.061E-02
    X_U12.x_lm741.vlim  -4.061E-02
    X_U12.x_lm741.vlp  -8.061E-11
    X_U12.x_lm741.vln   1.195E-05
    X_U13.x_lm741.vb   1.524E-05
    X_U13.x_lm741.vc   1.082E-11
    X_U13.x_lm741.ve  -4.061E-02
    X_U13.x_lm741.vlim  -4.061E-02
    X_U13.x_lm741.vlp  -8.061E-11
    X_U13.x_lm741.vln   1.210E-05

    TOTAL POWER DISSIPATION   4.22E-01  WATTS


**** 05/14/22 23:53:09 ******* PSpice 17.4.0 (Nov 2018) ******* ID# 0 ********

 ** Profile: "SCHEMATIC1-sim_tranzitoriu"  [ c:\cadence\lascuanamaria_orcad\proiect_cad-PSpiceFiles\SCHEMATIC1\sim_tranzitoriu.sim ] 


 ****     INITIAL TRANSIENT SOLUTION       TEMPERATURE =   27.000 DEG C

 ****     CURRENT STEP                     PARAM SENZOR =   26.0000E+03


******************************************************************************



 NODE   VOLTAGE     NODE   VOLTAGE     NODE   VOLTAGE     NODE   VOLTAGE


(  OUT)    2.0512  (  REF)    1.8181  ( +VCC)   12.0000  ( -VCC)  -12.0000      

( OUT1)    2.6803  (N00083)    2.0513 (N11289)    1.8870 (N11463)    1.8870     

(N11846)    1.8181 (N13042)    2.4407 (N13228)   11.7970 (N13284)    3.4006     

(N13710)   11.7960 (N13714)    2.9279 (N13754)    2.5316 (N14081)     .1837     

(N14085)     .1837 (N14125)    5.8528 (N14458)     .1837 (N14462)     .1837     

(N14502)    7.9320 (N14841)     .1837 (N14845)     .1837 (N14885)    9.6077     

(X_U4.x_lm741.6)-253.6E-06            (X_U4.x_lm741.7)    2.6838                

(X_U4.x_lm741.8)    2.6838            (X_U4.x_lm741.9)    0.0000                

(X_U7.x_lm741.6)-195.7E-06            (X_U7.x_lm741.7)    2.0594                

(X_U7.x_lm741.8)    2.0594            (X_U7.x_lm741.9)    0.0000                

(X_U8.x_lm741.6)-170.4E-06            (X_U8.x_lm741.7)    1.8146                

(X_U8.x_lm741.8)    1.8146            (X_U8.x_lm741.9)    0.0000                

(X_U9.x_lm741.6)   -1.4719            (X_U9.x_lm741.7)   13.8280                

